!Agilent N9923A: A.05.17
!Date: Sunday, 01 January 2006 12:09:36
!Model: N9923A
!Serial: MY50371189
!CHECKSUM:0448744002
!Correction: S11(ON U)
!S1P File: Measurement: S11:
# Hz S DB R 50
2000000000	0.142502813219372	145.975473104632
2000800000	0.141962834237056	145.81556959302
2001600000	0.135303306630753	145.623900855962
2002400000	0.132666312576055	145.478384277847
2003200000	0.124969058064053	145.293241757569
2004000000	0.121878582628883	145.134440243913
2004800000	0.116256766397371	144.969843600343
2005600000	0.111410988738044	144.784472705443
2006400000	0.106759736076895	144.619209189802
2007200000	0.1004512785799	144.447567571026
2008000000	0.0949099737876859	144.259550644787
2008800000	0.0937555656839659	144.122728993361
2009600000	0.0870360769744468	143.907870558225
2010400000	0.081311282937139	143.748205328654
2011200000	0.0772187536565508	143.596887776871
2012000000	0.0725655610728867	143.413269823114
2012800000	0.0656902785963429	143.235450234104
2013600000	0.0628444540120633	143.064723321765
2014400000	0.0539894798899549	142.878466892672
2015200000	0.0517067462792249	142.706976605056
2016000000	0.0513459284488346	142.535191532682
2016800000	0.0410554453378757	142.363712455415
2017600000	0.0359840010578937	142.19940347634
2018400000	0.0321325481973706	141.983476124861
2019200000	0.0272457949266193	141.828897546271
2020000000	0.0225871183138846	141.61604829795
2020800000	0.0122339194807835	141.462006042484
2021600000	0.00145289589061266	141.262314510595
2022400000	0.000609764824339708	141.135838895983
2023200000	-0.00269218300445332	140.959520898669
2024000000	-0.009674798266783	140.76401670231
2024800000	-0.0139442118435987	140.582920341603
2025600000	-0.020886580803555	140.420526461109
2026400000	-0.0220748825568015	140.259495519345
2027200000	-0.0373633116789579	140.064503840824
2028000000	-0.0365470400772487	139.873699421372
2028800000	-0.0453132087398078	139.705683877787
2029600000	-0.0603834847730349	139.516965420951
2030400000	-0.0628046049258003	139.359506443073
2031200000	-0.0657183016131818	139.162011360895
2032000000	-0.0746127894359165	138.974767597356
2032800000	-0.0824936166780163	138.852946695303
2033600000	-0.0904213071951526	138.657958407073
2034400000	-0.0893948532659019	138.449230946756
2035200000	-0.0972752591623531	138.246828079942
2036000000	-0.106230806328818	138.118568997149
2036800000	-0.111553133733282	137.954495159444
2037600000	-0.122814805259265	137.783685162002
2038400000	-0.134532006995524	137.535237289549
2039200000	-0.127769350436626	137.409100708098
2040000000	-0.140487085164768	137.263292793914
2040800000	-0.152859240750319	137.078978031422
2041600000	-0.154234516276718	136.883900944928
2042400000	-0.1579281009146	136.726479459841
2043200000	-0.164083503676982	136.50034206837
2044000000	-0.165694494042998	136.340533184698
2044800000	-0.177434916669396	136.139154435571
2045600000	-0.177816783063484	136.022347880353
2046400000	-0.187516334166929	135.815464340373
2047200000	-0.193264472100925	135.638949175408
2048000000	-0.202029242543344	135.417176276792
2048800000	-0.206429432937017	135.265453898766
2049600000	-0.21142369574296	135.08344481896
2050400000	-0.213449267976897	134.931566791692
2051200000	-0.21925818468528	134.770132882369
2052000000	-0.224465767225862	134.564106715101
2052800000	-0.239373287280108	134.433637008019
2053600000	-0.237924996853991	134.224556178876
2054400000	-0.235342447940833	134.048499008841
2055200000	-0.242864307619153	133.830389646068
2056000000	-0.258079717042244	133.679739820677
2056800000	-0.263423822357192	133.52838642378
2057600000	-0.270634337020602	133.39748684336
2058400000	-0.275169319424807	133.164398670469
2059200000	-0.283528549728053	133.008858893519
2060000000	-0.286979177128103	132.833116134976
2060800000	-0.292449335050805	132.679701024845
2061600000	-0.288216691799869	132.465381018802
2062400000	-0.297684832123673	132.366386791067
2063200000	-0.304186361070895	132.165631390103
2064000000	-0.302611447534543	132.035875372357
2064800000	-0.310587827261267	131.82123834942
2065600000	-0.31146284070074	131.681667889402
2066400000	-0.317230524657666	131.499058866324
2067200000	-0.319849261430122	131.336077458373
2068000000	-0.322796742326222	131.176118871838
2068800000	-0.324769954348273	131.010205636303
2069600000	-0.332776710658936	130.855756059044
2070400000	-0.336105200258353	130.665761111291
2071200000	-0.339203431575166	130.484195524297
2072000000	-0.340836566728602	130.34088792919
2072800000	-0.344047468148717	130.164540763352
2073600000	-0.348453913690496	130.013712271754
2074400000	-0.35118017661852	129.853201536804
2075200000	-0.354815991986026	129.676749204224
2076000000	-0.354896922601709	129.522705169054
2076800000	-0.359060938977462	129.344442788186
2077600000	-0.361887413711337	129.196118265137
2078400000	-0.363822674949656	129.050637609699
2079200000	-0.366480159798346	128.872723061202
2080000000	-0.371660599166457	128.678703033137
2080800000	-0.373469701069568	128.510888963162
2081600000	-0.376336225641951	128.353368748038
2082400000	-0.378476647955574	128.18442639663
2083200000	-0.378689654883509	128.019122129831
2084000000	-0.379681904106267	127.865311043909
2084800000	-0.382454840437688	127.703039990863
2085600000	-0.383199024002307	127.539555411685
2086400000	-0.385487240790341	127.384058222964
2087200000	-0.384301234126653	127.241558683185
2088000000	-0.386950555412106	127.07268905365
2088800000	-0.387909135726699	126.909528043519
2089600000	-0.388141225749945	126.765572974426
2090400000	-0.387475976797443	126.607129193659
2091200000	-0.390615140374206	126.432519570616
2092000000	-0.387908557420349	126.28752449345
2092800000	-0.391981723838767	126.150401997797
2093600000	-0.390959833527712	126.004703767795
2094400000	-0.388872909456825	125.840271231229
2095200000	-0.39106948491041	125.711917122902
2096000000	-0.410843848830102	125.464319837127
2096800000	-0.411165863891962	125.344933321095
2097600000	-0.413283534827593	125.175390295483
2098400000	-0.411240492410681	125.021502726839
2099200000	-0.410011676990111	124.875779108942
2100000000	-0.413941191275296	124.733344603904
2100800000	-0.409839893879834	124.567663802776
2101600000	-0.410876694199066	124.435481351336
2102400000	-0.407740023233033	124.290023959777
2103200000	-0.407424122181713	124.122826795192
2104000000	-0.40549709279213	124.003322619481
2104800000	-0.404417227903005	123.835631408391
2105600000	-0.405131715463972	123.691969354246
2106400000	-0.398945038912012	123.522763101998
2107200000	-0.404236809049852	123.413546825958
2108000000	-0.402074218791933	123.243939407597
2108800000	-0.403660061100018	123.104651244222
2109600000	-0.399386222752383	122.94057933578
2110400000	-0.402604073244365	122.80899896954
2111200000	-0.397284222081952	122.636880785757
2112000000	-0.393351359670562	122.486437967982
2112800000	-0.396014678401941	122.38265840481
2113600000	-0.398256327329511	122.235384324505
2114400000	-0.396868771401643	122.055170008201
2115200000	-0.392466551704629	121.924697945238
2116000000	-0.391763781356222	121.782674262706
2116800000	-0.389614307733273	121.613297157791
2117600000	-0.391121878047366	121.479908729521
2118400000	-0.390734348811195	121.324800365877
2119200000	-0.393236696547217	121.161003751767
2120000000	-0.389013203961916	121.008402959044
2120800000	-0.390507575912519	120.861032331409
2121600000	-0.388930039240339	120.705520158505
2122400000	-0.387805598646679	120.550392456696
2123200000	-0.387572662021902	120.413089536506
2124000000	-0.387254621188598	120.244179102214
2124800000	-0.391551107405773	120.089210415251
2125600000	-0.390541307137242	119.935835624503
2126400000	-0.388513497248983	119.771274967868
2127200000	-0.389914765140907	119.626475960763
2128000000	-0.392054283375714	119.478330279801
2128800000	-0.39532852822429	119.317418048442
2129600000	-0.39506551193953	119.157641158625
2130400000	-0.394403831094247	118.996108490995
2131200000	-0.395129766940516	118.837132884481
2132000000	-0.397625265913955	118.678579576153
2132800000	-0.398380699903236	118.505765084585
2133600000	-0.400616244140599	118.36674403182
2134400000	-0.400143267583242	118.18958369655
2135200000	-0.400622008493522	118.021683272791
2136000000	-0.402834477661568	117.85789511132
2136800000	-0.405215235484177	117.712084119427
2137600000	-0.406306656785729	117.546853401342
2138400000	-0.403563389771625	117.363171722564
2139200000	-0.409410030003023	117.196193402182
2140000000	-0.411673486568002	117.01673402581
2140800000	-0.412279822613537	116.850127477402
2141600000	-0.417046747484089	116.693371271872
2142400000	-0.42038370915262	116.535374494015
2143200000	-0.417317714951287	116.353873962027
2144000000	-0.41412403423548	116.186401212336
2144800000	-0.415660295571011	116.011467573671
2145600000	-0.417424239614395	115.822621708913
2146400000	-0.423222314306397	115.670263137509
2147200000	-0.427041209202944	115.500354741211
2148000000	-0.428699815279934	115.272664988057
2148800000	-0.430416956367582	115.135127136091
2149600000	-0.43401855260098	114.959644864052
2150400000	-0.441618503300831	114.76026924379
2151200000	-0.445184370002622	114.588675959295
2152000000	-0.449245301066966	114.434350626118
2152800000	-0.45330658573164	114.207678499938
2153600000	-0.45461578940683	113.999969456596
2154400000	-0.463032996430273	113.806468057883
2155200000	-0.461225171426212	113.7099494131
2156000000	-0.464321198390515	113.475630240625
2156800000	-0.473884746718755	113.301407992246
2157600000	-0.472115286289288	113.096311401471
2158400000	-0.4853146783859	112.930750219615
2159200000	-0.490214359808008	112.735838594408
2160000000	-0.497308786532465	112.560677306322
2160800000	-0.495172891358279	112.374602968008
2161600000	-0.502586911857911	112.260393566028
2162400000	-0.496500751007004	112.016076725194
2163200000	-0.51071066042002	111.818970260813
2164000000	-0.51514195628794	111.593962431687
2164800000	-0.521317821296839	111.376648077134
2165600000	-0.533246454052441	111.215373701465
2166400000	-0.524170625622668	111.003074045405
2167200000	-0.536566825663631	110.788548002871
2168000000	-0.550775671783362	110.624734587483
2168800000	-0.544063411551266	110.427858609114
2169600000	-0.552338083879909	110.300429306242
2170400000	-0.56106432004237	110.026264517122
2171200000	-0.568474865979287	109.853100238767
2172000000	-0.575209833897491	109.623927767738
2172800000	-0.572833479127704	109.430076782559
2173600000	-0.590845936640673	109.235226455164
2174400000	-0.58705010992785	109.035851836483
2175200000	-0.601950631695148	108.790711824544
2176000000	-0.593455008114447	108.645364413407
2176800000	-0.602059283174958	108.440905516407
2177600000	-0.609068494168521	108.233781200723
2178400000	-0.617476260436362	108.025711269324
2179200000	-0.624397631890947	107.806591945974
2180000000	-0.631609628804848	107.622807646
2180800000	-0.633573241593033	107.443322418824
2181600000	-0.651637448977659	107.25483335051
2182400000	-0.633917339942119	106.977072951434
2183200000	-0.654872968980063	106.730374678551
2184000000	-0.65699677322123	106.584445763709
2184800000	-0.671754260766902	106.318815220146
2185600000	-0.668577731717458	106.15142218089
2186400000	-0.67020862553997	105.889031113518
2187200000	-0.678083628848257	105.705733620699
2188000000	-0.686376633352175	105.479331979443
2188800000	-0.686271242979335	105.234771598549
2189600000	-0.698567439154225	105.075395925819
2190400000	-0.705096022528373	104.843869662441
2191200000	-0.714469985787408	104.573037523165
2192000000	-0.722823108199745	104.381709764295
2192800000	-0.718358592541861	104.210540665765
2193600000	-0.723954807594483	104.001304875155
2194400000	-0.734772949698171	103.782264760814
2195200000	-0.744332660934465	103.541508132552
2196000000	-0.744871435529565	103.364788711685
2196800000	-0.75116708166535	103.131951722308
2197600000	-0.755005183119666	102.914496422848
2198400000	-0.76148220535971	102.730242232487
2199200000	-0.768123591394549	102.486013875024
2200000000	-0.773283136444138	102.252919537424
2200800000	-0.777283438012258	102.05101683819
2201600000	-0.786086132017284	101.800732262627
2202400000	-0.790410268559193	101.621164378204
2203200000	-0.798215281424859	101.422768410541
2204000000	-0.802631342955191	101.20842192047
2204800000	-0.805981984580241	100.988433036065
2205600000	-0.811335479050782	100.773263791986
2206400000	-0.818415971326157	100.574119836633
2207200000	-0.821753324510435	100.367353230853
2208000000	-0.825675948652351	100.154902933991
2208800000	-0.832176187971682	99.9332919009036
2209600000	-0.836597401335858	99.7273339608059
2210400000	-0.842077801166217	99.5185323720961
2211200000	-0.845678905117247	99.2965962294682
2212000000	-0.850783001568097	99.0808244584659
2212800000	-0.856758406222563	98.8737443673915
2213600000	-0.859182671525251	98.6575282593397
2214400000	-0.865419486028191	98.459538399062
2215200000	-0.866023360623985	98.2514753529231
2216000000	-0.873321410916542	98.0270798408615
2216800000	-0.875525681559273	97.8264546048972
2217600000	-0.880308432241115	97.6331361939637
2218400000	-0.883815836379057	97.4194949315096
2219200000	-0.888243108568721	97.2024683983303
2220000000	-0.891457221593278	96.9822420837021
2220800000	-0.895181831039546	96.774369600103
2221600000	-0.894145044796553	96.5665212847921
2222400000	-0.903953246926543	96.367461201299
2223200000	-0.908082070056754	96.1734635545517
2224000000	-0.90722332425507	95.9677772317189
2224800000	-0.911223446101929	95.7859657937412
2225600000	-0.916129584192735	95.5576663217361
2226400000	-0.91822203225452	95.3648153816315
2227200000	-0.920529175638786	95.1366069860658
2228000000	-0.924631224271876	94.9633930926414
2228800000	-0.931463939801881	94.7544679010707
2229600000	-0.932089566957937	94.5511656991422
2230400000	-0.931388289385115	94.3486543184547
2231200000	-0.936811458463142	94.1400196934308
2232000000	-0.939007168754745	93.9544839777963
2232800000	-0.939225997711961	93.7530343684063
2233600000	-0.940806928697171	93.5518329579215
2234400000	-0.949105782635805	93.3500660442655
2235200000	-0.951580663893665	93.1400800693803
2236000000	-0.951711664055126	92.9146293283506
2236800000	-0.955496382609487	92.711741558691
2237600000	-0.956381232635834	92.5052651215126
2238400000	-0.958664677719202	92.3254910215908
2239200000	-0.960080241425339	92.1351665398938
2240000000	-0.970799370107706	91.8437447499146
2240800000	-0.965145003498225	91.6633420760783
2241600000	-0.973067116733311	91.4486989602749
2242400000	-0.972586647357547	91.2590937655094
2243200000	-0.977274120289432	91.0824436684849
2244000000	-0.979473395179459	90.8507422996051
2244800000	-0.983622508606506	90.6829794691185
2245600000	-0.982343989039955	90.4740316476833
2246400000	-0.985699581985562	90.2873167644199
2247200000	-0.985220260131575	90.0939426484026
2248000000	-0.989177903347724	89.8997915805168
2248800000	-0.994351495971121	89.6988149341407
2249600000	-0.993014667057308	89.5162417454557
2250400000	-0.996040551221697	89.3183659179678
2251200000	-0.99524854311385	89.1113264171648
2252000000	-0.998630294298256	88.9214866762014
2252800000	-0.999673999025218	88.7030277366333
2253600000	-0.995940964468268	88.5268446038169
2254400000	-0.999379537501651	88.304686222043
2255200000	-1.0008846621288	88.1209027240888
2256000000	-1.00471090381239	87.9391861154304
2256800000	-1.00376493038923	87.7012011069772
2257600000	-1.00889201268944	87.5155042249816
2258400000	-1.00909228416991	87.2950331066177
2259200000	-1.01334813648982	87.1007030991976
2260000000	-1.01386315109387	86.8762895852432
2260800000	-1.01623966438684	86.6789525632278
2261600000	-1.01772984251173	86.4598870549382
2262400000	-1.02297978081918	86.2814858097301
2263200000	-1.02261638679053	86.0547281962597
2264000000	-1.02136278603332	85.8521444078972
2264800000	-1.02612468001112	85.6511997762736
2265600000	-1.02829153334617	85.451094961614
2266400000	-1.03188409909941	85.2738109706181
2267200000	-1.03338142702001	85.063126177026
2268000000	-1.0344367802405	84.8715600037171
2268800000	-1.03702122246084	84.6617155344682
2269600000	-1.04201009088252	84.4843727148851
2270400000	-1.04034471157306	84.2959009709806
2271200000	-1.04378383977738	84.0820359268383
2272000000	-1.04514380318813	83.9072974407032
2272800000	-1.05022736435869	83.6881261613917
2273600000	-1.05644143324976	83.498970363048
2274400000	-1.05335829618231	83.3068982118499
2275200000	-1.05950920982621	83.0809917974441
2276000000	-1.06048810848852	82.8737887590805
2276800000	-1.06359108971219	82.676399014762
2277600000	-1.06550551307534	82.4620030917364
2278400000	-1.07224057124031	82.2440854353187
2279200000	-1.07286833133643	82.0313535808269
2280000000	-1.07675640049098	81.848843515293
2280800000	-1.07877156709871	81.6000057410487
2281600000	-1.08848906230639	81.4523467687447
2282400000	-1.08598093468227	81.1912910347872
2283200000	-1.09060984528583	80.9403865126938
2284000000	-1.09309240927142	80.753285247895
2284800000	-1.10137478609982	80.496620098838
2285600000	-1.10582655653395	80.2921300943202
2286400000	-1.11109554521764	80.1052235239155
2287200000	-1.1145351176505	79.893577566976
2288000000	-1.12015387256378	79.6680565632692
2288800000	-1.12872642672641	79.4576993243257
2289600000	-1.13428858315635	79.2275696130285
2290400000	-1.14218240706245	78.9964069848912
2291200000	-1.14695784895495	78.7836818950688
2292000000	-1.14845810811581	78.5466940785452
2292800000	-1.15614357007782	78.3432252036118
2293600000	-1.15658442703462	78.0927418101653
2294400000	-1.1674924516228	77.8766720051053
2295200000	-1.1699805040595	77.6523764001801
2296000000	-1.18574086388307	77.4274353158629
2296800000	-1.18738533261273	77.1843120656504
2297600000	-1.19883268713531	76.9378500700946
2298400000	-1.20516920234096	76.7068189303519
2299200000	-1.2082355087477	76.4747756614876
2300000000	-1.22833156046904	76.2539425153483
2300800000	-1.22282301663921	76.0177564990949
2301600000	-1.22225768597698	75.7341834096404
2302400000	-1.2389629078472	75.4733061156548
2303200000	-1.2543740444436	75.3139476110542
2304000000	-1.26111577419941	75.0536397889221
2304800000	-1.26324735783417	74.818270673974
2305600000	-1.27315315829254	74.5506681666893
2306400000	-1.28289696140071	74.3579744331151
2307200000	-1.28972778022731	74.0820335188928
2308000000	-1.3002641855612	73.8400210593983
2308800000	-1.30928142968362	73.5743398840131
2309600000	-1.31883775229307	73.3385032406186
2310400000	-1.32671883959748	73.1241543691105
2311200000	-1.34004096815716	72.8503666743875
2312000000	-1.34744525953884	72.5698188680762
2312800000	-1.35915626376598	72.3220975921762
2313600000	-1.37063057647313	72.0021565800088
2314400000	-1.3841402225305	71.7923865252482
2315200000	-1.3926949668496	71.5118647789744
2316000000	-1.40629620111094	71.2853245386957
2316800000	-1.41550216167918	70.9885183371231
2317600000	-1.42168481402974	70.7143974685921
2318400000	-1.43593439672674	70.4849272641763
2319200000	-1.4500637116331	70.25899228997
2320000000	-1.45264765875174	69.9790800110034
2320800000	-1.46873001534423	69.6823997268356
2321600000	-1.47112808381031	69.4878903540703
2322400000	-1.48923157720028	69.171500971384
2323200000	-1.49653107802346	68.8902574331983
2324000000	-1.50836958973739	68.6274287646131
2324800000	-1.51822517316812	68.331983634342
2325600000	-1.53396713281572	68.098385560638
2326400000	-1.54134507589889	67.7959628318097
2327200000	-1.55679088992004	67.5022938807806
2328000000	-1.56890983308126	67.207373461438
2328800000	-1.57538631201048	66.9411830487597
2329600000	-1.58796698991606	66.6390917131856
2330400000	-1.60301861584922	66.3676924335597
2331200000	-1.61597537139248	66.0554116624429
2332000000	-1.6269420659298	65.7361921519314
