!Agilent N9923A: A.05.17
!Date: Sunday, 01 January 2006 12:18:58
!Model: N9923A
!Serial: MY50371189
!CHECKSUM:0451534325
!Correction: S11(ON U)
!S1P File: Measurement: S11:
# Hz S DB R 50
2000000000	-0.304874694979577	143.040982032734
2000800000	-0.303837411640535	142.873634769725
2001600000	-0.31018466935378	142.663473089896
2002400000	-0.310677083671886	142.512468199229
2003200000	-0.315475122043954	142.320153859803
2004000000	-0.316257492924204	142.152855738708
2004800000	-0.321217320929704	141.978424511451
2005600000	-0.323720247165564	141.785072956604
2006400000	-0.326600781540742	141.611632050576
2007200000	-0.332647918826748	141.423731160464
2008000000	-0.33526112845999	141.226949386925
2008800000	-0.335004522252064	141.070838013484
2009600000	-0.339893596820326	140.862614522512
2010400000	-0.343063690933998	140.690165443663
2011200000	-0.345012916075121	140.528240634194
2012000000	-0.350512904472955	140.328980607342
2012800000	-0.354563906688962	140.153912351767
2013600000	-0.353378197363987	139.951725143246
2014400000	-0.358930820932322	139.796892553032
2015200000	-0.361269186515692	139.599650686529
2016000000	-0.368985632174341	139.433404642618
2016800000	-0.373519407272021	139.232678895249
2017600000	-0.378806116871285	139.072429611854
2018400000	-0.389613890313839	138.883753347575
2019200000	-0.388261152421387	138.695081235487
2020000000	-0.393761307299819	138.50943153535
2020800000	-0.397294458919031	138.335766779136
2021600000	-0.392415549304163	138.113068778288
2022400000	-0.404729349407379	138.012771585129
2023200000	-0.405101960994503	137.817104226566
2024000000	-0.408513018778757	137.621944753504
2024800000	-0.412977697162617	137.427691235824
2025600000	-0.421323808351728	137.255904491021
2026400000	-0.420103464328034	137.085394747109
2027200000	-0.434333354483529	136.882360150638
2028000000	-0.431245270361095	136.706181450682
2028800000	-0.441273673248985	136.543713726692
2029600000	-0.447213632054924	136.355432247637
2030400000	-0.451901553066268	136.183430142083
2031200000	-0.458544014260579	136.005158028359
2032000000	-0.455202720724021	135.777474586692
2032800000	-0.467449427964151	135.64959608974
2033600000	-0.476550664053089	135.485377812115
2034400000	-0.469416175127385	135.275420981733
2035200000	-0.485283581111152	135.046977908793
2036000000	-0.486230698818566	134.914879070758
2036800000	-0.501033043118783	134.726313397016
2037600000	-0.50498400925382	134.556635470983
2038400000	-0.508320362049768	134.37639608158
2039200000	-0.508743188766183	134.20707893508
2040000000	-0.527292018922486	134.02932506578
2040800000	-0.526027665890107	133.837284831965
2041600000	-0.542532224770412	133.713814542394
2042400000	-0.544953684918537	133.533218403719
2043200000	-0.543832713462311	133.298218613227
2044000000	-0.550495505477457	133.15077599385
2044800000	-0.554571456267143	132.941005756769
2045600000	-0.561779961871502	132.832675041638
2046400000	-0.563303294441691	132.646861546559
2047200000	-0.574342918117851	132.448702819336
2048000000	-0.576772146539743	132.245089096903
2048800000	-0.586862693002152	132.131523194969
2049600000	-0.592551920321002	132.003342909759
2050400000	-0.595307321220621	131.805356669542
2051200000	-0.603737066798444	131.658817696371
2052000000	-0.60541960080102	131.446880148677
2052800000	-0.617362965308949	131.313985517111
2053600000	-0.626270316285755	131.186537094081
2054400000	-0.618232695297184	130.925336488067
2055200000	-0.62887089784695	130.76938209506
2056000000	-0.637041640861812	130.61360398178
2056800000	-0.640153203601373	130.483584089844
2057600000	-0.646980041341592	130.328530294338
2058400000	-0.659117273280081	130.116269321366
2059200000	-0.655044561103314	129.941167711753
2060000000	-0.664441541411605	129.80650502378
2060800000	-0.667794800975172	129.648849549555
2061600000	-0.66303711781189	129.418349562299
2062400000	-0.669492430239567	129.299296172436
2063200000	-0.681505603292115	129.130695016469
2064000000	-0.684010692276531	128.955823081947
2064800000	-0.682476370825287	128.796963543989
2065600000	-0.689328809998372	128.59026758664
2066400000	-0.691393455514181	128.481446909947
2067200000	-0.696007040232224	128.284218003521
2068000000	-0.699498932446824	128.117819771686
2068800000	-0.702902159850482	127.974237660781
2069600000	-0.710004277979035	127.797274506309
2070400000	-0.712851980148507	127.640500509227
2071200000	-0.715298532300056	127.480315864306
2072000000	-0.721905164479246	127.313520149392
2072800000	-0.722026796345502	127.15058450741
2073600000	-0.727825300407784	126.992479920624
2074400000	-0.727825134900816	126.828245983649
2075200000	-0.732914092242467	126.637917690932
2076000000	-0.735157609059921	126.504074139989
2076800000	-0.738713559395352	126.340400505174
2077600000	-0.739004717332304	126.189882672612
2078400000	-0.744335458602693	126.023858030228
2079200000	-0.746782930059312	125.855301554903
2080000000	-0.745585450903496	125.71422616049
2080800000	-0.750064399898446	125.551734610777
2081600000	-0.750006274792015	125.390746400227
2082400000	-0.752330931510974	125.241242287443
2083200000	-0.755020044241219	125.086927210033
2084000000	-0.756502392096635	124.916838569744
2084800000	-0.758864595941442	124.757751129062
2085600000	-0.760317874939065	124.602595185618
2086400000	-0.762354771555205	124.44357548151
2087200000	-0.761443374612125	124.287477800889
2088000000	-0.763515102263688	124.129880848277
2088800000	-0.764966183368508	123.94585418292
2089600000	-0.765273862079828	123.807394733048
2090400000	-0.766486731891756	123.63997970084
2091200000	-0.768543527299942	123.471864915976
2092000000	-0.766632003326021	123.31219876942
2092800000	-0.771751602111381	123.177541175444
2093600000	-0.773261530898054	123.009891872894
2094400000	-0.770677490692909	122.845469910702
2095200000	-0.773025662137386	122.701849685415
2096000000	-0.771278300677829	122.559173428196
2096800000	-0.775951765765441	122.398769547514
2097600000	-0.776605369797	122.213430554321
2098400000	-0.775647711725582	122.075775260018
2099200000	-0.771530872037207	121.896460556385
2100000000	-0.776400475405231	121.748906478406
2100800000	-0.774349804322391	121.567787256447
2101600000	-0.781230140685695	121.383628664203
2102400000	-0.771872717881207	121.260473954927
2103200000	-0.774784055691528	121.078496968914
2104000000	-0.773461258264319	120.936783254147
2104800000	-0.775152095494367	120.747408142002
2105600000	-0.774750349394039	120.581393555105
2106400000	-0.777916257141675	120.423363522658
2107200000	-0.777411267499118	120.27411934759
2108000000	-0.773890362532659	120.098109700818
2108800000	-0.773984496371337	119.955968472039
2109600000	-0.774021131739465	119.767266322321
2110400000	-0.775586505032463	119.593836740135
2111200000	-0.779369199216326	119.40989592024
2112000000	-0.777634043444349	119.282339546201
2112800000	-0.779997316062428	119.155579567766
2113600000	-0.786144230029445	118.950967363045
2114400000	-0.789005770357969	118.787154263101
2115200000	-0.783626570012324	118.606639554905
2116000000	-0.784984180017387	118.454633002279
2116800000	-0.783352302427989	118.259611008371
2117600000	-0.787873446163509	118.090493752231
2118400000	-0.789699338189041	117.90616913471
2119200000	-0.789268041919874	117.746960338196
2120000000	-0.791699704702051	117.556890111057
2120800000	-0.796128473164714	117.376877038175
2121600000	-0.795157776745279	117.185688444614
2122400000	-0.793897033570243	117.015949699156
2123200000	-0.79680463624622	116.841864409441
2124000000	-0.799922947436682	116.651351499482
2124800000	-0.802479538525743	116.462181377093
2125600000	-0.805691178987758	116.278942288273
2126400000	-0.807363194210685	116.087793599259
2127200000	-0.809328691924313	115.918624173643
2128000000	-0.809086903366233	115.746742472346
2128800000	-0.814227760010395	115.553110050327
2129600000	-0.816501148099701	115.363321526471
2130400000	-0.818652243594055	115.171388437217
2131200000	-0.821235001466642	114.974198585683
2132000000	-0.824964076548671	114.783118245126
2132800000	-0.82679384302866	114.586538580197
2133600000	-0.832723521686753	114.385537386577
2134400000	-0.835414627382196	114.190318033255
2135200000	-0.836590428613079	113.989240958448
2136000000	-0.84075711409428	113.778483901597
2136800000	-0.846203859970783	113.582115429378
2137600000	-0.850574413051289	113.379125667527
2138400000	-0.848578927089647	113.163446025089
2139200000	-0.859720233974728	112.950328693442
2140000000	-0.861040949428588	112.732792956043
2140800000	-0.865952156511168	112.536569292762
2141600000	-0.872891948984133	112.324117917877
2142400000	-0.881516197445251	112.11976236866
2143200000	-0.881804972416734	111.900090914959
2144000000	-0.888352415984107	111.699638396842
2144800000	-0.896833306584762	111.515004495077
2145600000	-0.897576066220813	111.286928762037
2146400000	-0.908131074439705	111.059949328891
2147200000	-0.910880329139228	110.825514813074
2148000000	-0.916029769089778	110.592317765178
2148800000	-0.922525626989636	110.401444748934
2149600000	-0.927694874869006	110.168857920086
2150400000	-0.939265003927169	109.91128976784
2151200000	-0.946613589906162	109.706139690516
2152000000	-0.959449007020157	109.477271238675
2152800000	-0.965147848273806	109.244999580974
2153600000	-0.975809026487941	108.990027159252
2154400000	-0.968737408158608	108.746574472435
2155200000	-0.986791045408167	108.527900764226
2156000000	-0.983027333473878	108.307520812904
2156800000	-0.99667844495673	108.062998240614
2157600000	-1.00079020109803	107.813528804612
2158400000	-1.02403156325993	107.550863605459
2159200000	-1.02234569397122	107.34398080335
2160000000	-1.03780851321545	107.094253661333
2160800000	-1.03318651908453	106.792398005889
2161600000	-1.0336851088803	106.641958291853
2162400000	-1.05096948523804	106.366537599125
2163200000	-1.06007524972287	106.126988950164
2164000000	-1.07008402520209	105.854162855434
2164800000	-1.08206024458122	105.54774389654
2165600000	-1.08865805417369	105.326484304872
2166400000	-1.08554002148325	105.095759232254
2167200000	-1.10010030043595	104.846354724731
2168000000	-1.11567287821514	104.581595907111
2168800000	-1.11630916687923	104.311679174856
2169600000	-1.12005643503735	104.10700002217
2170400000	-1.13342922293094	103.792759249873
2171200000	-1.14033780056825	103.527793228863
2172000000	-1.16072851668541	103.264764779828
2172800000	-1.16075747782013	103.026475887803
2173600000	-1.18172351923206	102.839238947108
2174400000	-1.17536183747278	102.521396889095
2175200000	-1.18742652796196	102.258497229025
2176000000	-1.19747094698889	101.928994209661
2176800000	-1.20283694923668	101.742075643029
2177600000	-1.21758562722283	101.466783215042
2178400000	-1.22122751840828	101.220085629024
2179200000	-1.2321190117058	100.959162153697
2180000000	-1.23725481352432	100.712131866417
2180800000	-1.25387655219544	100.420761958806
2181600000	-1.2687712270384	100.146668852501
2182400000	-1.26923794698844	99.8482815534154
2183200000	-1.28499000469417	99.6196052288234
2184000000	-1.29326672397834	99.3663899493917
2184800000	-1.30491256296284	99.1204900829874
2185600000	-1.30714212517792	98.825308248745
2186400000	-1.31456676020586	98.5545273735925
2187200000	-1.32712026712692	98.3077396303779
2188000000	-1.33449095144145	98.0559496212277
2188800000	-1.33858498375951	97.7664171139445
2189600000	-1.34620567727745	97.5210750021766
2190400000	-1.36052549002731	97.26618924732
2191200000	-1.36692505979745	96.948807115493
2192000000	-1.37573910612347	96.6319024649926
2192800000	-1.37474117332206	96.4031740743953
2193600000	-1.38353014158223	96.1419177342614
2194400000	-1.39761381106414	95.9428689901496
2195200000	-1.40238980848621	95.6626953226616
2196000000	-1.40973902181486	95.3907034849809
2196800000	-1.4172186066686	95.1295184996397
2197600000	-1.41960937801274	94.8810170585361
2198400000	-1.42311685262575	94.6431475368261
2199200000	-1.43146287257459	94.3703843292495
2200000000	-1.44278571813124	94.1017316126821
2200800000	-1.44590259750561	93.8661326271541
2201600000	-1.45668050750953	93.5895740270644
2202400000	-1.46171476607103	93.3673620177257
2203200000	-1.4685707465163	93.1222253467343
2204000000	-1.47211365035867	92.8643351157964
2204800000	-1.47904789842731	92.6118403922774
2205600000	-1.48492951235181	92.359834498223
2206400000	-1.4925070853529	92.1405847195649
2207200000	-1.49549220813651	91.8784970311242
2208000000	-1.50154290147989	91.6533100221779
2208800000	-1.50810651836797	91.4157337665927
2209600000	-1.51114465965786	91.1707781125523
2210400000	-1.51734156202926	90.9023495673953
2211200000	-1.51986972952658	90.6707240116763
2212000000	-1.52441791536967	90.4421289133377
2212800000	-1.53277333887989	90.1953729173687
2213600000	-1.535751383315	89.9628343115922
2214400000	-1.53927553998487	89.7352287233001
2215200000	-1.54276806283684	89.4749395930552
2216000000	-1.54876826336412	89.2630291872212
2216800000	-1.54895898874053	89.0130848948813
2217600000	-1.55377994474185	88.7936166781043
2218400000	-1.55724037231898	88.569328060811
2219200000	-1.56169915821994	88.3031925444763
2220000000	-1.56297623505285	88.0762213702937
2220800000	-1.56866402039809	87.8451367036224
2221600000	-1.56854441081787	87.6061105715383
2222400000	-1.57610378547806	87.3606706908974
2223200000	-1.58286146497879	87.149352275684
2224000000	-1.58156886623938	86.9094270209616
2224800000	-1.58304090026865	86.6594772238335
2225600000	-1.58995563951162	86.4360564432964
2226400000	-1.5873793788496	86.1876737937461
2227200000	-1.59593393733424	85.9739487980678
2228000000	-1.6005144811822	85.7503718047121
2228800000	-1.60358083809123	85.5091456956167
2229600000	-1.60599589723767	85.2807352021496
2230400000	-1.61017577956491	85.0636816017665
2231200000	-1.61472581274837	84.8229795213259
2232000000	-1.6186125237925	84.6211980329796
2232800000	-1.6199442943161	84.3579396093524
2233600000	-1.62870735395387	84.1585434938921
2234400000	-1.62979782982724	83.9107425965192
2235200000	-1.63781846773622	83.6781579631491
2236000000	-1.63348738660156	83.4258568411517
2236800000	-1.64228773657944	83.2260383349301
2237600000	-1.64954460465339	82.9811796729001
2238400000	-1.656397715482	82.7623390721094
2239200000	-1.65603632527747	82.5092065670911
2240000000	-1.66832504134051	82.3198514111434
2240800000	-1.66924666971509	82.0767593827039
2241600000	-1.67314221040703	81.8449225207963
2242400000	-1.68338249538869	81.6452773652673
2243200000	-1.69038259125844	81.42388980003
2244000000	-1.69733421827208	81.1662837788929
2244800000	-1.7010117874756	80.984585693314
2245600000	-1.70846852026878	80.7444166268395
2246400000	-1.71642717714993	80.5137317855177
2247200000	-1.72169886271973	80.2945430557082
2248000000	-1.7299211890028	80.0707451339393
2248800000	-1.74128439467396	79.8254082530903
2249600000	-1.74182276550695	79.6055053863047
2250400000	-1.75090953122395	79.3640498128622
2251200000	-1.75786654983502	79.1316206870627
2252000000	-1.76702939570474	78.892193182193
2252800000	-1.77213135818011	78.6419094453408
2253600000	-1.77628082094267	78.4300574530074
2254400000	-1.785285264373	78.141678908187
2255200000	-1.79409419354372	77.9289907641411
2256000000	-1.80550369649594	77.762724435659
2256800000	-1.81057935030348	77.485681207195
2257600000	-1.82440795554176	77.2586974057161
2258400000	-1.82853386375665	76.9771059843132
2259200000	-1.84108364176879	76.75398752892
2260000000	-1.85017253304786	76.50929217321
2260800000	-1.85886613315366	76.230093016471
2261600000	-1.86695693197568	75.9506762220258
2262400000	-1.88095276911652	75.7137751564709
2263200000	-1.89109932768116	75.4490070932251
2264000000	-1.89835866701168	75.1751863630244
2264800000	-1.9073601073156	74.9101974853765
2265600000	-1.92400173764615	74.6331794495497
2266400000	-1.93575926732	74.3692285020138
2267200000	-1.94963691653629	74.1004382399174
2268000000	-1.95939396306345	73.8102711130881
2268800000	-1.97398836750249	73.5250878025306
2269600000	-1.9899680793344	73.2512348679601
2270400000	-2.00240650820929	72.9555485895521
2271200000	-2.01700946011189	72.6644007529637
2272000000	-2.0331603418805	72.3972387974653
2272800000	-2.04729529773386	72.1172277452376
2273600000	-2.06642428747868	71.866195054922
2274400000	-2.07905197885605	71.5527198629458
2275200000	-2.09851751941286	71.2623582925128
2276000000	-2.11450266220003	70.9225345589618
2276800000	-2.13143362579985	70.6619030110016
2277600000	-2.14616507651614	70.3664759093949
2278400000	-2.17459474798181	70.0245225207702
2279200000	-2.18261725549868	69.7293212050299
2280000000	-2.206632220411	69.4703745012451
2280800000	-2.22470318587834	69.1149667684702
2281600000	-2.24139760695865	68.8974826634112
2282400000	-2.2650464069737	68.5044868960889
2283200000	-2.28220983133974	68.16675480015
2284000000	-2.30126570134309	67.8415597197403
2284800000	-2.31880150527298	67.4844876222159
2285600000	-2.34935022603091	67.1901968032371
2286400000	-2.35885644387746	66.8153678484012
2287200000	-2.39378243270275	66.5167048057078
2288000000	-2.40783900314773	66.1834830858552
2288800000	-2.4424854861751	65.8285587269476
2289600000	-2.4583718450474	65.4672340436812
2290400000	-2.48813150626476	65.1190449297675
2291200000	-2.51185229342871	64.8373647296292
2292000000	-2.53568776294747	64.4872493882558
2292800000	-2.55919851779559	64.0243908578521
2293600000	-2.57773190813485	63.6707209040803
2294400000	-2.60987669638548	63.3477993236805
2295200000	-2.63617651100365	62.9671252365348
2296000000	-2.66673908244157	62.546660215853
2296800000	-2.69011652019049	62.185646002149
2297600000	-2.71490192276741	61.8263187771457
2298400000	-2.74956475183856	61.4224579345239
2299200000	-2.77758953400092	61.0436530903831
2300000000	-2.80974365427557	60.6756274876168
2300800000	-2.83440933633242	60.2908877636733
2301600000	-2.84970899415116	59.8962399583962
2302400000	-2.89627855321582	59.4685042481393
2303200000	-2.92949237780947	59.1055147159817
2304000000	-2.96799861654385	58.7017099010095
2304800000	-2.98993291414708	58.3310160263622
2305600000	-3.02290393178429	57.9467081407818
2306400000	-3.05120419798082	57.5596087957653
2307200000	-3.0868925315604	57.1512377692666
2308000000	-3.11553652898341	56.7350590176118
2308800000	-3.14487253079262	56.3372802496599
2309600000	-3.18066928585557	55.9288484842185
2310400000	-3.21012142738174	55.5175318705971
2311200000	-3.24000465768074	55.0724902165551
2312000000	-3.26714699617853	54.6360040966057
2312800000	-3.30386589672153	54.2264020809545
2313600000	-3.33473446576756	53.7259049065076
2314400000	-3.36590278766864	53.3774536527398
2315200000	-3.39810994393216	52.9082550261841
2316000000	-3.43953828469734	52.4635778227873
2316800000	-3.46637398830457	51.980661665094
2317600000	-3.49268119281205	51.5172186254298
2318400000	-3.52784979310393	51.1022590450749
2319200000	-3.56309759312535	50.6781448238959
2320000000	-3.59164489473054	50.2332946672582
2320800000	-3.62708244996902	49.7302417585671
2321600000	-3.65681115171048	49.32286566644
2322400000	-3.69628512234081	48.8128809763844
2323200000	-3.72217328710638	48.3481071311759
2324000000	-3.76175896497405	47.867546519636
2324800000	-3.79576718160782	47.3520983771354
2325600000	-3.83366652123332	46.937330731425
2326400000	-3.86754617155861	46.4295867406096
2327200000	-3.90690436901957	45.9814524309874
2328000000	-3.94577976954829	45.4785373528975
2328800000	-3.98007001690476	45.0202831119207
2329600000	-4.020843148735	44.4981970681463
2330400000	-4.0583134758576	44.0422529931067
2331200000	-4.09721714535202	43.5438122223264
2332000000	-4.13132972232324	43.0151648655286
2332800000	-4.17392125058307	42.5549897544981
2333600000	-4.21737216163486	42.092301388936
2334400000	-4.25143401565516	41.570163281629
